
T0A4C 000:313 SEGGER J-Link V5.12 Log File (0000ms, 0270ms total)
T0A4C 000:313 DLL Compiled: Mar 30 2016 17:28:31 (0000ms, 0270ms total)
T0A4C 000:313 Logging started @ 2019-01-14 17:06 (0000ms, 0270ms total)
T0A4C 000:313 JLINK_SetWarnOutHandler(...) (0000ms, 0270ms total)
T0A4C 000:313 JLINK_OpenEx(...)
Firmware: J-Link ARM V8 compiled Nov 28 2014 13:44:46
Hardware: V8.00
Feature(s): RDI,FlashDL,FlashBP,JFlash,GDB  returns O.K. (0266ms, 0536ms total)
T0A4C 000:579 JLINK_SetErrorOutHandler(...) (0000ms, 0536ms total)
T0A4C 000:579 JLINK_ExecCommand("ProjectFile = "F:\´¨~\GitHub\STM32_IAP\JLinkSettings.ini"", ...)  returns 0x00 (0002ms, 0538ms total)
T0A4C 000:581 JLINK_ExecCommand("Device = STM32F103C8", ...)Device "STM32F103C8" selected.  returns 0x00 (0002ms, 0540ms total)
T0A4C 000:583 JLINK_ExecCommand("DisableConnectionTimeout", ...)  returns 0x01 (0000ms, 0540ms total)
T0A4C 000:583 JLINK_GetHardwareVersion()  returns 0x13880 (0000ms, 0540ms total)
T0A4C 000:583 JLINK_GetDLLVersion()  returns 51200 (0000ms, 0540ms total)
T0A4C 000:583 JLINK_GetFirmwareString(...) (0000ms, 0540ms total)
T0A4C 000:588 JLINK_GetDLLVersion()  returns 51200 (0000ms, 0540ms total)
T0A4C 000:588 JLINK_GetCompileDateTime() (0000ms, 0540ms total)
T0A4C 000:589 JLINK_GetFirmwareString(...) (0000ms, 0540ms total)
T0A4C 000:590 JLINK_GetHardwareVersion()  returns 0x13880 (0000ms, 0540ms total)
T0A4C 000:592 JLINK_TIF_Select(JLINKARM_TIF_SWD)  returns 0x00 (0001ms, 0541ms total)
T0A4C 000:593 JLINK_SetSpeed(2000) (0000ms, 0541ms total)
T0A4C 000:593 JLINK_GetId() >0x108 TIF>Found SWD-DP with ID 0x1BA01477 >0x0D TIF> >0x28 TIF> >0x0D TIF> >0x28 TIF> >0x0D TIF> >0x28 TIF> >0x0D TIF> >0x28 TIF> >0x0D TIF> >0x21 TIF> >0x0D TIF> >0x28 TIF> >0x0D TIF> >0x28 TIF> >0x0D TIF> >0x28 TIF> >0x0D TIF> >0x21 TIF> >0x0D TIF> >0x21 TIF> >0x0D TIF> >0x28 TIF> >0x0D TIF> >0x21 TIF> >0x0D TIF> >0x21 TIF> >0x0D TIF> >0x28 TIF> >0x0D TIF> >0x21 TIF> >0x0D TIF> >0x21 TIF> >0x0D TIF> >0x28 TIF> >0x0D TIF> >0x21 TIF> >0x0D TIF> >0x21 TIF> >0x0D TIF>
 >0x28 TIF> >0x0D TIF> >0x21 TIF> >0x0D TIF> >0x21 TIF> >0x0D TIF> >0x28 TIF> >0x0D TIF> >0x21 TIF> >0x0D TIF> >0x21 TIF> >0x108 TIF>Found SWD-DP with ID 0x1BA01477 >0x0D TIF> >0x28 TIF> >0x0D TIF> >0x28 TIF> >0x0D TIF> >0x28 TIF> >0x0D TIF> >0x28 TIF> >0x0D TIF> >0x21 TIF> >0x0D TIF> >0x28 TIF> >0x0D TIF> >0x28 TIF> >0x0D TIF> >0x21 TIF> >0x0D TIF> >0x21 TIF> >0x0D TIF> >0x21 TIF> >0x0D TIF> >0x28 TIF> >0x0D TIF> >0x28 TIF> >0x0D TIF> >0x28 TIF> >0x0D TIF> >0x21 TIF> >0x0D TIF> >0x21 TIF> >0x0D TIF>
 >0x28 TIF> >0x0D TIF> >0x21 TIF> >0x0D TIF> >0x21 TIF>Found Cortex-M3 r1p1, Little endian. -- CPU_ReadMem(4 bytes @ 0xE000EDF0) -- CPU_ReadMem(4 bytes @ 0xE0002000)FPUnit: 6 code (BP) slots and 2 literal slots -- CPU_ReadMem(4 bytes @ 0xE000EDFC) -- CPU_ReadMem(4 bytes @ 0xE0001000) -- CPU_WriteMem(4 bytes @ 0xE0001000) -- CPU_ReadMem(4 bytes @ 0xE000ED88) -- CPU_WriteMem(4 bytes @ 0xE000ED88) -- CPU_ReadMem(4 bytes @ 0xE000ED88) -- CPU_WriteMem(4 bytes @ 0xE000ED88)CoreSight components:
ROMTbl 0 @ E00FF000 -- CPU_ReadMem(16 bytes @ 0xE00FF000) -- CPU_ReadMem(16 bytes @ 0xE000EFF0) -- CPU_ReadMem(16 bytes @ 0xE000EFE0)ROMTbl 0 [0]: FFF0F000, CID: B105E00D, PID: 001BB000 SCS -- CPU_ReadMem(16 bytes @ 0xE0001FF0) -- CPU_ReadMem(16 bytes @ 0xE0001FE0)ROMTbl 0 [1]: FFF02000, CID: B105E00D, PID: 001BB002 DWT -- CPU_ReadMem(16 bytes @ 0xE0002FF0) -- CPU_ReadMem(16 bytes @ 0xE0002FE0)ROMTbl 0 [2]: FFF03000, CID: B105E00D, PID: 000BB003 FPB -- CPU_ReadMem(16 bytes @ 0xE0000FF0)
 -- CPU_ReadMem(16 bytes @ 0xE0000FE0)ROMTbl 0 [3]: FFF01000, CID: B105E00D, PID: 001BB001 ITM -- CPU_ReadMem(16 bytes @ 0xE00FF010) -- CPU_ReadMem(16 bytes @ 0xE0040FF0) -- CPU_ReadMem(16 bytes @ 0xE0040FE0)ROMTbl 0 [4]: FFF41000, CID: B105900D, PID: 001BB923 TPIU-Lite -- CPU_ReadMem(16 bytes @ 0xE0041FF0) -- CPU_ReadMem(16 bytes @ 0xE0041FE0)ROMTbl 0 [5]: FFF42000, CID: B105900D, PID: 101BB924 ETM-M3 >0x0D TIF> >0x21 TIF>  returns 0x1BA01477 (0041ms, 0582ms total)
T0A4C 000:634 JLINK_GetDLLVersion()  returns 51200 (0000ms, 0582ms total)
T0A4C 000:634 JLINK_CORE_GetFound()  returns 0x30000FF (0000ms, 0582ms total)
T0A4C 000:634 JLINK_GetDebugInfo(0x100) -- Value=0xE00FF000  returns 0x00 (0000ms, 0582ms total)
T0A4C 000:634 JLINK_ReadMem (0xE00FF000, 0x0020 Bytes, ...) -- CPU is running -- CPU_ReadMem(32 bytes @ 0xE00FF000) - Data: 03 F0 F0 FF 03 20 F0 FF 03 30 F0 FF 03 10 F0 FF ...  returns 0x00 (0001ms, 0583ms total)
T0A4C 000:635 JLINK_ReadMem (0xE000EFF0, 0x0010 Bytes, ...) -- CPU is running -- CPU_ReadMem(16 bytes @ 0xE000EFF0) - Data: 0D 00 00 00 E0 00 00 00 05 00 00 00 B1 00 00 00  returns 0x00 (0001ms, 0584ms total)
T0A4C 000:636 JLINK_ReadMem (0xE000EFD0, 0x0020 Bytes, ...) -- CPU is running -- CPU_ReadMem(32 bytes @ 0xE000EFD0) - Data: 04 00 00 00 00 00 00 00 00 00 00 00 00 00 00 00 ...  returns 0x00 (0000ms, 0584ms total)
T0A4C 000:636 JLINK_ReadMem (0xE0001FF0, 0x0010 Bytes, ...) -- CPU is running -- CPU_ReadMem(16 bytes @ 0xE0001FF0) - Data: 0D 00 00 00 E0 00 00 00 05 00 00 00 B1 00 00 00  returns 0x00 (0002ms, 0586ms total)
T0A4C 000:638 JLINK_ReadMem (0xE0001FD0, 0x0020 Bytes, ...) -- CPU is running -- CPU_ReadMem(32 bytes @ 0xE0001FD0) - Data: 04 00 00 00 00 00 00 00 00 00 00 00 00 00 00 00 ...  returns 0x00 (0000ms, 0586ms total)
T0A4C 000:638 JLINK_ReadMem (0xE0002FF0, 0x0010 Bytes, ...) -- CPU is running -- CPU_ReadMem(16 bytes @ 0xE0002FF0) - Data: 0D 00 00 00 E0 00 00 00 05 00 00 00 B1 00 00 00  returns 0x00 (0001ms, 0587ms total)
T0A4C 000:639 JLINK_ReadMem (0xE0002FD0, 0x0020 Bytes, ...) -- CPU is running -- CPU_ReadMem(32 bytes @ 0xE0002FD0) - Data: 04 00 00 00 00 00 00 00 00 00 00 00 00 00 00 00 ...  returns 0x00 (0001ms, 0588ms total)
T0A4C 000:640 JLINK_ReadMem (0xE0000FF0, 0x0010 Bytes, ...) -- CPU is running -- CPU_ReadMem(16 bytes @ 0xE0000FF0) - Data: 0D 00 00 00 E0 00 00 00 05 00 00 00 B1 00 00 00  returns 0x00 (0000ms, 0588ms total)
T0A4C 000:640 JLINK_ReadMem (0xE0000FD0, 0x0020 Bytes, ...) -- CPU is running -- CPU_ReadMem(32 bytes @ 0xE0000FD0) - Data: 04 00 00 00 00 00 00 00 00 00 00 00 00 00 00 00 ...  returns 0x00 (0001ms, 0589ms total)
T0A4C 000:641 JLINK_ReadMem (0xE0040FF0, 0x0010 Bytes, ...) -- CPU is running -- CPU_ReadMem(16 bytes @ 0xE0040FF0) - Data: 0D 00 00 00 90 00 00 00 05 00 00 00 B1 00 00 00  returns 0x00 (0000ms, 0589ms total)
T0A4C 000:641 JLINK_ReadMem (0xE0040FD0, 0x0020 Bytes, ...) -- CPU is running -- CPU_ReadMem(32 bytes @ 0xE0040FD0) - Data: 04 00 00 00 00 00 00 00 00 00 00 00 00 00 00 00 ...  returns 0x00 (0001ms, 0590ms total)
T0A4C 000:642 JLINK_ReadMem (0xE0041FF0, 0x0010 Bytes, ...) -- CPU is running -- CPU_ReadMem(16 bytes @ 0xE0041FF0) - Data: 0D 00 00 00 90 00 00 00 05 00 00 00 B1 00 00 00  returns 0x00 (0001ms, 0591ms total)
T0A4C 000:643 JLINK_ReadMem (0xE0041FD0, 0x0020 Bytes, ...) -- CPU is running -- CPU_ReadMem(32 bytes @ 0xE0041FD0) - Data: 04 00 00 00 00 00 00 00 00 00 00 00 00 00 00 00 ...  returns 0x00 (0001ms, 0592ms total)
T0A4C 000:644 JLINK_ReadMemU32(0xE000ED00, 0x0001 Items, ...) -- CPU is running -- CPU_ReadMem(4 bytes @ 0xE000ED00) - Data: 31 C2 1F 41  returns 0x01 (0000ms, 0592ms total)
T0A4C 000:644 JLINK_SetResetType(JLINKARM_RESET_TYPE_NORMAL)  returns JLINKARM_RESET_TYPE_NORMAL (0000ms, 0592ms total)
T0A4C 000:644 JLINK_Reset() -- CPU is running -- CPU_WriteMem(4 bytes @ 0xE000EDF0) -- CPU is running -- CPU_WriteMem(4 bytes @ 0xE000EDFC) >0x35 TIF> -- CPU is running -- CPU_WriteMem(4 bytes @ 0xE000ED0C) -- CPU is running -- CPU_ReadMem(4 bytes @ 0xE000EDF0) -- CPU is running -- CPU_ReadMem(4 bytes @ 0xE000EDF0) -- CPU is running -- CPU_WriteMem(4 bytes @ 0xE000EDF0) -- CPU is running -- CPU_WriteMem(4 bytes @ 0xE000EDFC) -- CPU is running -- CPU_ReadMem(4 bytes @ 0xE000EDF0)
 -- CPU_WriteMem(4 bytes @ 0xE0002000) -- CPU_ReadMem(4 bytes @ 0xE000EDFC) -- CPU_ReadMem(4 bytes @ 0xE0001000) (0019ms, 0611ms total)
T0A4C 000:663 JLINK_ReadReg(R15 (PC))  returns 0x08000F4C (0000ms, 0611ms total)
T0A4C 000:663 JLINK_ReadReg(XPSR)  returns 0x01000000 (0000ms, 0611ms total)
T0A4C 000:663 JLINK_Halt()  returns 0x00 (0000ms, 0611ms total)
T0A4C 000:663 JLINK_IsHalted()  returns TRUE (0000ms, 0611ms total)
T0A4C 000:663 JLINK_ReadMemU32(0xE000EDF0, 0x0001 Items, ...) -- CPU_ReadMem(4 bytes @ 0xE000EDF0) - Data: 03 00 03 00  returns 0x01 (0001ms, 0612ms total)
T0A4C 000:664 JLINK_WriteU32(0xE000EDF0, 0xA05F0003) -- CPU_WriteMem(4 bytes @ 0xE000EDF0)  returns 0x00 (0001ms, 0613ms total)
T0A4C 000:665 JLINK_WriteU32(0xE000EDFC, 0x01000000) -- CPU_WriteMem(4 bytes @ 0xE000EDFC)  returns 0x00 (0000ms, 0613ms total)
T0A4C 000:665 JLINK_GetHWStatus(...)  returns 0x00 (0001ms, 0614ms total)
T0A4C 000:666 JLINK_GetNumBPUnits(Type = 0xFFFFFF00)  returns 0x06 (0000ms, 0614ms total)
T0A4C 000:666 JLINK_GetNumBPUnits(Type = 0xF0)  returns 0x2000 (0000ms, 0614ms total)
T0A4C 000:666 JLINK_GetNumWPUnits()  returns 0x04 (0000ms, 0614ms total)
T0A4C 000:666 JLINK_GetSpeed()  returns 0x7D0 (0000ms, 0614ms total)
T0A4C 000:666 JLINK_ReadMemU32(0xE000E004, 0x0001 Items, ...) -- CPU_ReadMem(4 bytes @ 0xE000E004) - Data: 01 00 00 00  returns 0x01 (0001ms, 0615ms total)
T0A4C 000:667 JLINK_ReadMemU32(0xE000E004, 0x0001 Items, ...) -- CPU_ReadMem(4 bytes @ 0xE000E004) - Data: 01 00 00 00  returns 0x01 (0001ms, 0616ms total)
T0A4C 000:668 JLINK_WriteMem(0xE0001000, 0x001C Bytes, ...) - Data: 01 00 00 00 00 00 00 00 00 00 00 00 00 00 00 00 ... -- CPU_WriteMem(28 bytes @ 0xE0001000)  returns 0x1C (0001ms, 0617ms total)
T0A4C 000:669 JLINK_ReadMem (0xE0001000, 0x001C Bytes, ...) -- CPU_ReadMem(28 bytes @ 0xE0001000) - Data: 01 00 00 40 00 00 00 00 00 00 00 00 00 00 00 00 ...  returns 0x00 (0001ms, 0618ms total)
T0A4C 000:670 JLINK_ReadReg(R15 (PC))  returns 0x08000F4C (0000ms, 0618ms total)
T0A4C 000:670 JLINK_ReadReg(XPSR)  returns 0x01000000 (0000ms, 0618ms total)
T0A4C 000:670 JLINK_WriteU32(0xE0041FB0, 0xC5ACCE55) -- CPU_WriteMem(4 bytes @ 0xE0041FB0)  returns 0x00 (0000ms, 0618ms total)
T0A4C 000:670 JLINK_ReadMemU32(0xE0041000, 0x0001 Items, ...) -- CPU_ReadMem(4 bytes @ 0xE0041000) - Data: 10 04 00 00  returns 0x01 (0000ms, 0618ms total)
T0A4C 000:672 JLINK_SWO_Control(JLINKARM_SWO_CMD_GET_SPEED_INFO, ...)  returns 0x00 (0001ms, 0619ms total)
T0A4C 000:673 JLINK_SWO_Control(JLINKARM_SWO_CMD_STOP, ...)  returns 0x00 (0000ms, 0619ms total)
T0A4C 000:673 JLINK_SWO_Control(JLINKARM_SWO_CMD_START, ...) -- UART -- 6000000bps -- CPU_ReadMem(4 bytes @ 0xE0042004)  returns 0x00 (0001ms, 0620ms total)
T0A4C 000:674 JLINK_WriteU32(0xE0040004, 0x00000001) -- CPU_WriteMem(4 bytes @ 0xE0040004)  returns 0x00 (0000ms, 0620ms total)
T0A4C 000:674 JLINK_WriteU32(0xE0040010, 0x0000000B)  returns 0x00 (0000ms, 0620ms total)
T0A4C 000:674 JLINK_WriteU32(0xE00400F0, 0x00000002)  returns 0x00 (0000ms, 0620ms total)
T0A4C 000:674 JLINK_WriteU32(0xE0040304, 0x00000000)  returns 0x00 (0000ms, 0620ms total)
T0A4C 000:674 JLINK_WriteU32(0xE0000FB0, 0xC5ACCE55) -- CPU_WriteMem(4 bytes @ 0xE0000FB0)  returns 0x00 (0001ms, 0621ms total)
T0A4C 000:675 JLINK_WriteU32(0xE0000E80, 0x0001000D)  returns 0x00 (0000ms, 0621ms total)
T0A4C 000:675 JLINK_WriteU32(0xE0000E00, 0xFFFFFFFF)  returns 0x00 (0000ms, 0621ms total)
T0A4C 000:675 JLINK_WriteU32(0xE0000E40, 0x00000008)  returns 0x00 (0000ms, 0621ms total)
T0A4C 000:675 JLINK_WriteU32(0xE0001000, 0x00010A1F)  returns 0x00 (0000ms, 0621ms total)
T0A4C 000:763 JLINK_SetResetType(JLINKARM_RESET_TYPE_NORMAL)  returns JLINKARM_RESET_TYPE_NORMAL (0000ms, 0621ms total)
T0A4C 000:763 JLINK_Reset() -- CPU_WriteMem(4 bytes @ 0xE0000E00) -- CPU_WriteMem(4 bytes @ 0xE0000E40) -- CPU_WriteMem(4 bytes @ 0xE0000E80) -- CPU_WriteMem(4 bytes @ 0xE0001000) -- CPU_WriteMem(4 bytes @ 0xE0040010) -- CPU_WriteMem(4 bytes @ 0xE00400F0) -- CPU_WriteMem(4 bytes @ 0xE0040304) -- CPU_WriteMem(4 bytes @ 0xE000EDF0) -- CPU_WriteMem(4 bytes @ 0xE000EDFC) >0x35 TIF> -- CPU_WriteMem(4 bytes @ 0xE000ED0C) -- CPU_ReadMem(4 bytes @ 0xE000EDF0) -- CPU_ReadMem(4 bytes @ 0xE000EDF0)
 -- CPU_WriteMem(4 bytes @ 0xE000EDF0) -- CPU_WriteMem(4 bytes @ 0xE000EDFC) -- CPU is running -- CPU_ReadMem(4 bytes @ 0xE000EDF0) -- CPU_WriteMem(4 bytes @ 0xE0002000) -- CPU_ReadMem(4 bytes @ 0xE000EDFC) -- CPU_ReadMem(4 bytes @ 0xE0001000) (0023ms, 0644ms total)
T0A4C 000:786 JLINK_WriteU32(0xE000EDFC, 0x01000000) -- CPU_WriteMem(4 bytes @ 0xE000EDFC)  returns 0x00 (0001ms, 0645ms total)
T0A4C 000:787 JLINK_ReadReg(R15 (PC))  returns 0x08000F4C (0000ms, 0645ms total)
T0A4C 000:787 JLINK_ReadReg(XPSR)  returns 0x01000000 (0000ms, 0645ms total)
T0A4C 000:796 JLINK_ReadMem (0x08000E4C, 0x003C Bytes, ...) -- CPU_ReadMem(128 bytes @ 0x08000E40) -- Updating C cache (128 bytes @ 0x08000E40) -- Read from C cache (60 bytes @ 0x08000E4C) - Data: 36 48 00 68 40 F0 01 00 34 49 08 60 08 46 40 68 ...  returns 0x00 (0002ms, 0647ms total)
T0A4C 000:799 JLINK_ReadMem (0x08000E88, 0x003C Bytes, ...) -- CPU_ReadMem(64 bytes @ 0x08000EC0) -- Updating C cache (64 bytes @ 0x08000EC0) -- Read from C cache (60 bytes @ 0x08000E88) - Data: 88 60 FF F7 DA FF 4F F0 00 60 29 49 08 60 10 BD ...  returns 0x00 (0001ms, 0648ms total)
T0A4C 000:800 JLINK_ReadMem (0x08000EC4, 0x003C Bytes, ...) -- Read from C cache (60 bytes @ 0x08000EC4) - Data: 18 4B 5B 68 03 F4 70 10 16 4B 5B 68 03 F4 80 32 ...  returns 0x00 (0000ms, 0648ms total)
T0A4C 000:800 JLINK_ReadMem (0x08000F00, 0x003C Bytes, ...) -- CPU_ReadMem(64 bytes @ 0x08000F00) -- Updating C cache (64 bytes @ 0x08000F00) -- Read from C cache (60 bytes @ 0x08000F00) - Data: 23 60 03 E0 0D 4B 0E 4C 23 60 00 BF 00 BF 06 4B ...  returns 0x00 (0002ms, 0650ms total)
T0A4C 000:802 JLINK_ReadMem (0x08000F4A, 0x0002 Bytes, ...) -- CPU_ReadMem(64 bytes @ 0x08000F40) -- Updating C cache (64 bytes @ 0x08000F40) -- Read from C cache (2 bytes @ 0x08000F4A) - Data: 00 20  returns 0x00 (0002ms, 0652ms total)
T0A4C 000:804 JLINK_ReadMem (0x08000F4C, 0x003C Bytes, ...) -- CPU_ReadMem(64 bytes @ 0x08000F80) -- Updating C cache (64 bytes @ 0x08000F80) -- Read from C cache (60 bytes @ 0x08000F4C) - Data: 09 48 80 47 09 48 00 47 FE E7 FE E7 FE E7 FE E7 ...  returns 0x00 (0001ms, 0653ms total)
T0A4C 000:833 JLINK_WriteU32(0xE0001008, 0x00000000)  returns 0x00 (0000ms, 0653ms total)
T0A4C 000:833 JLINK_WriteU32(0xE000100C, 0x00000000)  returns 0x00 (0000ms, 0653ms total)
T0A4C 000:833 JLINK_WriteU32(0xE0001010, 0x00000000)  returns 0x00 (0000ms, 0653ms total)
T0A4C 000:833 JLINK_WriteU32(0xE0001014, 0x00000000)  returns 0x00 (0000ms, 0653ms total)
T0A4C 000:833 JLINK_WriteU32(0xE0001018, 0x00000000)  returns 0x00 (0000ms, 0653ms total)
T0A4C 000:859 JLINK_ReadMem (0xE000ED28, 0x0004 Bytes, ...) -- CPU_ReadMem(4 bytes @ 0xE000ED28) - Data: 00 00 00 00  returns 0x00 (0000ms, 0653ms total)
T0A4C 000:859 JLINK_ReadMem (0xE000ED2C, 0x0004 Bytes, ...) -- CPU_ReadMem(4 bytes @ 0xE000ED2C) - Data: 00 00 00 00  returns 0x00 (0001ms, 0654ms total)
T0A4C 000:861 JLINK_ReadMem (0xE000ED30, 0x0004 Bytes, ...) -- CPU_ReadMem(4 bytes @ 0xE000ED30) - Data: 09 00 00 00  returns 0x00 (0002ms, 0656ms total)
T0A4C 000:863 JLINK_ReadMem (0xE000ED34, 0x0004 Bytes, ...) -- CPU_ReadMem(4 bytes @ 0xE000ED34) - Data: F8 ED 00 E0  returns 0x00 (0001ms, 0657ms total)
T0A4C 000:864 JLINK_ReadMem (0xE000ED38, 0x0004 Bytes, ...) -- CPU_ReadMem(4 bytes @ 0xE000ED38) - Data: F8 ED 00 E0  returns 0x00 (0001ms, 0658ms total)
T0A4C 002:051 JLINK_ReadMem (0x20000000, 0x0134 Bytes, ...) -- CPU_ReadMem(320 bytes @ 0x20000000) -- Updating C cache (320 bytes @ 0x20000000) -- Read from C cache (308 bytes @ 0x20000000) - Data: 01 00 00 F0 5C 01 00 00 09 00 28 23 00 00 00 00 ...  returns 0x00 (0005ms, 0663ms total)
T0A4C 002:056 JLINK_ReadMem (0x08005000, 0x0134 Bytes, ...) -- CPU_ReadMem(320 bytes @ 0x08005000) -- Updating C cache (320 bytes @ 0x08005000) -- Read from C cache (308 bytes @ 0x08005000) - Data: 10 24 00 20 29 53 00 08 A5 86 00 08 25 79 00 08 ...  returns 0x00 (0004ms, 0667ms total)
T0A4C 002:060 JLINK_ReadMem (0x2000088C, 0x00EE Bytes, ...) -- CPU_ReadMem(256 bytes @ 0x20000880) -- Updating C cache (256 bytes @ 0x20000880) -- Read from C cache (238 bytes @ 0x2000088C) - Data: 00 00 00 00 00 00 00 00 00 00 00 00 00 00 00 00 ...  returns 0x00 (0004ms, 0671ms total)
T209C 002:076 JLINK_SetBPEx(Addr = 0x080001E8, Type = 0xFFFFFFF2)  returns 0x00000001 (0000ms, 0671ms total)
T209C 002:076 JLINK_SetBPEx(Addr = 0x080001F2, Type = 0xFFFFFFF2)  returns 0x00000002 (0000ms, 0671ms total)
T209C 002:076 JLINK_ReadMemU32(0xE0001004, 0x0001 Items, ...) -- CPU_ReadMem(4 bytes @ 0xE0001004) - Data: 6D 0D 00 00  returns 0x01 (0001ms, 0672ms total)
T209C 002:077 JLINK_WriteU32(0xE0001004, 0x000003FF) -- CPU_WriteMem(4 bytes @ 0xE0001004)  returns 0x00 (0000ms, 0672ms total)
T209C 002:077 JLINK_WriteU32(0xE0001000, 0x00410A1F)  returns 0x00 (0000ms, 0672ms total)
T209C 002:077 JLINK_WriteU32(0xE0000E80, 0x0001000F)  returns 0x00 (0000ms, 0672ms total)
T209C 002:077 JLINK_SWO_Control(JLINKARM_SWO_CMD_GET_NUM_BYTES, ...)  returns 0x00 (0000ms, 0672ms total)
T209C 002:077 JLINK_Go() -- CPU_WriteMem(4 bytes @ 0xE0002000) -- CPU_WriteMem(4 bytes @ 0xE0002000) -- CPU_WriteMem(4 bytes @ 0xE0001000) -- CPU_ReadMem(4 bytes @ 0xE0001000) -- CPU_WriteMem(4 bytes @ 0xE0000E80) -- CPU_WriteMem(4 bytes @ 0xE0001008) -- CPU_WriteMem(4 bytes @ 0xE000100C) -- CPU_WriteMem(4 bytes @ 0xE0001010) -- CPU_WriteMem(4 bytes @ 0xE0001014) -- CPU_WriteMem(4 bytes @ 0xE0001018) -- CPU_WriteMem(4 bytes @ 0xE0002008) -- CPU_WriteMem(4 bytes @ 0xE000200C)
 -- CPU_WriteMem(4 bytes @ 0xE0002010) -- CPU_WriteMem(4 bytes @ 0xE0002014) -- CPU_WriteMem(4 bytes @ 0xE0002018) -- CPU_WriteMem(4 bytes @ 0xE000201C) -- CPU_WriteMem(4 bytes @ 0xE0001004) (0009ms, 0681ms total)
T209C 002:086 JLINK_WriteU32(0xE0001000, 0x00010A1F) -- CPU is running -- CPU_WriteMem(4 bytes @ 0xE0001000)  returns 0x00 (0001ms, 0682ms total)
T209C 002:188 JLINK_SWO_Read(..., Offset = 0x00, NumBytes = 0x400000) - Data:  NumBytesRead = 0x00 (0000ms, 0682ms total)
T209C 002:190 JLINK_SWO_Control(JLINKARM_SWO_CMD_FLUSH, ...)  returns 0x00 (0000ms, 0682ms total)
T209C 002:190 JLINK_IsHalted()  returns TRUE (0003ms, 0685ms total)
T209C 002:194 JLINK_Halt()  returns 0x00 (0000ms, 0682ms total)
T209C 002:194 JLINK_IsHalted()  returns TRUE (0000ms, 0682ms total)
T209C 002:194 JLINK_IsHalted()  returns TRUE (0000ms, 0682ms total)
T209C 002:194 JLINK_IsHalted()  returns TRUE (0000ms, 0682ms total)
T209C 002:194 JLINK_ReadReg(R15 (PC))  returns 0x080001E8 (0000ms, 0682ms total)
T209C 002:194 JLINK_ReadReg(XPSR)  returns 0x21000000 (0000ms, 0682ms total)
T209C 002:194 JLINK_SWO_Read(..., Offset = 0x00, NumBytes = 0x400000) - Data:  NumBytesRead = 0x00 (0000ms, 0682ms total)
T209C 002:196 JLINK_SWO_Control(JLINKARM_SWO_CMD_FLUSH, ...)  returns 0x00 (0000ms, 0682ms total)
T209C 002:196 JLINK_ClrBPEx(BPHandle = 0x00000001)  returns 0x00 (0000ms, 0682ms total)
T209C 002:196 JLINK_ClrBPEx(BPHandle = 0x00000002)  returns 0x00 (0000ms, 0682ms total)
T209C 002:196 JLINK_ReadMemU32(0xE000ED30, 0x0001 Items, ...) -- CPU_ReadMem(4 bytes @ 0xE000ED30) - Data: 03 00 00 00  returns 0x01 (0000ms, 0682ms total)
T209C 002:196 JLINK_ReadMemU32(0xE0001028, 0x0001 Items, ...) -- CPU_ReadMem(4 bytes @ 0xE0001028) - Data: 00 00 00 00  returns 0x01 (0001ms, 0683ms total)
T209C 002:197 JLINK_ReadMemU32(0xE0001038, 0x0001 Items, ...) -- CPU_ReadMem(4 bytes @ 0xE0001038) - Data: 00 02 00 00  returns 0x01 (0000ms, 0683ms total)
T209C 002:197 JLINK_ReadMemU32(0xE0001048, 0x0001 Items, ...) -- CPU_ReadMem(4 bytes @ 0xE0001048) - Data: 00 00 00 00  returns 0x01 (0001ms, 0684ms total)
T209C 002:198 JLINK_ReadMemU32(0xE0001058, 0x0001 Items, ...) -- CPU_ReadMem(4 bytes @ 0xE0001058) - Data: 00 00 00 00  returns 0x01 (0001ms, 0685ms total)
T209C 002:199 JLINK_ReadReg(R0)  returns 0x20001968 (0000ms, 0685ms total)
T209C 002:199 JLINK_ReadReg(R1)  returns 0x20001B68 (0000ms, 0685ms total)
T209C 002:199 JLINK_ReadReg(R2)  returns 0x20001B68 (0000ms, 0685ms total)
T209C 002:199 JLINK_ReadReg(R3)  returns 0x20001B68 (0000ms, 0685ms total)
T209C 002:199 JLINK_ReadReg(R4)  returns 0x00000000 (0000ms, 0685ms total)
T209C 002:199 JLINK_ReadReg(R5)  returns 0x20001904 (0000ms, 0685ms total)
T209C 002:199 JLINK_ReadReg(R6)  returns 0x00000000 (0000ms, 0685ms total)
T209C 002:199 JLINK_ReadReg(R7)  returns 0x00000000 (0000ms, 0685ms total)
T209C 002:199 JLINK_ReadReg(R8)  returns 0x00000000 (0000ms, 0685ms total)
T209C 002:199 JLINK_ReadReg(R9)  returns 0x20000160 (0000ms, 0685ms total)
T209C 002:199 JLINK_ReadReg(R10)  returns 0x08003488 (0000ms, 0685ms total)
T209C 002:199 JLINK_ReadReg(R11)  returns 0x00000000 (0000ms, 0685ms total)
T209C 002:199 JLINK_ReadReg(R12)  returns 0x20001944 (0000ms, 0685ms total)
T209C 002:199 JLINK_ReadReg(R13 (SP))  returns 0x20001F68 (0000ms, 0685ms total)
T209C 002:199 JLINK_ReadReg(R14)  returns 0x080001B7 (0000ms, 0685ms total)
T209C 002:199 JLINK_ReadReg(R15 (PC))  returns 0x080001E8 (0000ms, 0685ms total)
T209C 002:199 JLINK_ReadReg(XPSR)  returns 0x21000000 (0000ms, 0685ms total)
T209C 002:199 JLINK_ReadReg(MSP)  returns 0x20001F68 (0000ms, 0685ms total)
T209C 002:199 JLINK_ReadReg(PSP)  returns 0x20000800 (0000ms, 0685ms total)
T209C 002:199 JLINK_ReadReg(CFBP)  returns 0x00000000 (0000ms, 0685ms total)
T0A4C 002:201 JLINK_ReadMemU32(0xE0001004, 0x0001 Items, ...) -- CPU_ReadMem(4 bytes @ 0xE0001004) - Data: 0F 6F 00 00  returns 0x01 (0001ms, 0686ms total)
T0A4C 002:203 JLINK_ReadMem (0xE000ED28, 0x0004 Bytes, ...) -- CPU_ReadMem(4 bytes @ 0xE000ED28) - Data: 00 00 00 00  returns 0x00 (0000ms, 0686ms total)
T0A4C 002:203 JLINK_ReadMem (0xE000ED2C, 0x0004 Bytes, ...) -- CPU_ReadMem(4 bytes @ 0xE000ED2C) - Data: 00 00 00 00  returns 0x00 (0001ms, 0687ms total)
T0A4C 002:204 JLINK_ReadMem (0xE000ED30, 0x0004 Bytes, ...) -- CPU_ReadMem(4 bytes @ 0xE000ED30) - Data: 03 00 00 00  returns 0x00 (0000ms, 0687ms total)
T0A4C 002:204 JLINK_ReadMem (0xE000ED34, 0x0004 Bytes, ...) -- CPU_ReadMem(4 bytes @ 0xE000ED34) - Data: F8 ED 00 E0  returns 0x00 (0001ms, 0688ms total)
T0A4C 002:205 JLINK_ReadMem (0xE000ED38, 0x0004 Bytes, ...) -- CPU_ReadMem(4 bytes @ 0xE000ED38) - Data: F8 ED 00 E0  returns 0x00 (0000ms, 0688ms total)
T0A4C 002:210 JLINK_ReadMem (0x080001E6, 0x0002 Bytes, ...) -- CPU_ReadMem(64 bytes @ 0x080001C0) -- Updating C cache (64 bytes @ 0x080001C0) -- Read from C cache (2 bytes @ 0x080001E6) - Data: 70 47  returns 0x00 (0001ms, 0689ms total)
T0A4C 002:211 JLINK_ReadMem (0x080001E8, 0x003C Bytes, ...) -- CPU_ReadMem(64 bytes @ 0x08000200) -- Updating C cache (64 bytes @ 0x08000200) -- Read from C cache (60 bytes @ 0x080001E8) - Data: 90 B0 3C 21 01 A8 02 F0 E0 FF 00 BF 00 F0 A0 F8 ...  returns 0x00 (0002ms, 0691ms total)
T209C 004:637 JLINK_SetBPEx(Addr = 0x080001F2, Type = 0xFFFFFFF2)  returns 0x00000003 (0000ms, 0691ms total)
T209C 004:637 JLINK_ReadMemU32(0xE0001004, 0x0001 Items, ...) - Data: 0F 6F 00 00  returns 0x01 (0000ms, 0691ms total)
T209C 004:637 JLINK_WriteU32(0xE0001004, 0x00006FFF) -- CPU_WriteMem(4 bytes @ 0xE0001004)  returns 0x00 (0001ms, 0692ms total)
T209C 004:638 JLINK_WriteU32(0xE0001000, 0x00410A1F)  returns 0x00 (0000ms, 0692ms total)
T209C 004:638 JLINK_WriteU32(0xE0000E80, 0x0001000F)  returns 0x00 (0000ms, 0692ms total)
T209C 004:638 JLINK_SWO_Control(JLINKARM_SWO_CMD_GET_NUM_BYTES, ...)  returns 0x00 (0000ms, 0692ms total)
T209C 004:638 JLINK_Go() -- CPU_WriteMem(4 bytes @ 0xE0002000) -- CPU_WriteMem(4 bytes @ 0xE0001000) -- CPU_ReadMem(4 bytes @ 0xE0001000) -- CPU_WriteMem(4 bytes @ 0xE0000E80) -- CPU_WriteMem(4 bytes @ 0xE0002008) -- CPU_WriteMem(4 bytes @ 0xE000200C) (0004ms, 0696ms total)
T209C 004:642 JLINK_WriteU32(0xE0001000, 0x00010A1F) -- CPU is running -- CPU_WriteMem(4 bytes @ 0xE0001000)  returns 0x00 (0001ms, 0697ms total)
T209C 004:743 JLINK_SWO_Read(..., Offset = 0x00, NumBytes = 0x400000) - Data:  NumBytesRead = 0x00 (0000ms, 0697ms total)
T209C 004:745 JLINK_SWO_Control(JLINKARM_SWO_CMD_FLUSH, ...)  returns 0x00 (0000ms, 0697ms total)
T209C 004:745 JLINK_IsHalted()  returns TRUE (0004ms, 0701ms total)
T209C 004:749 JLINK_Halt()  returns 0x00 (0000ms, 0697ms total)
T209C 004:749 JLINK_IsHalted()  returns TRUE (0000ms, 0697ms total)
T209C 004:749 JLINK_IsHalted()  returns TRUE (0000ms, 0697ms total)
T209C 004:749 JLINK_IsHalted()  returns TRUE (0000ms, 0697ms total)
T209C 004:749 JLINK_ReadReg(R15 (PC))  returns 0x080001F2 (0000ms, 0697ms total)
T209C 004:749 JLINK_ReadReg(XPSR)  returns 0x61000000 (0000ms, 0697ms total)
T209C 004:749 JLINK_SWO_Read(..., Offset = 0x00, NumBytes = 0x400000) - Data:  NumBytesRead = 0x00 (0000ms, 0697ms total)
T209C 004:752 JLINK_SWO_Control(JLINKARM_SWO_CMD_FLUSH, ...)  returns 0x00 (0000ms, 0697ms total)
T209C 004:752 JLINK_ClrBPEx(BPHandle = 0x00000003)  returns 0x00 (0000ms, 0697ms total)
T209C 004:752 JLINK_ReadMemU32(0xE000ED30, 0x0001 Items, ...) -- CPU_ReadMem(4 bytes @ 0xE000ED30) - Data: 03 00 00 00  returns 0x01 (0001ms, 0698ms total)
T209C 004:753 JLINK_ReadMemU32(0xE0001028, 0x0001 Items, ...) -- CPU_ReadMem(4 bytes @ 0xE0001028) - Data: 00 00 00 00  returns 0x01 (0001ms, 0699ms total)
T209C 004:754 JLINK_ReadMemU32(0xE0001038, 0x0001 Items, ...) -- CPU_ReadMem(4 bytes @ 0xE0001038) - Data: 00 02 00 00  returns 0x01 (0001ms, 0700ms total)
T209C 004:755 JLINK_ReadMemU32(0xE0001048, 0x0001 Items, ...) -- CPU_ReadMem(4 bytes @ 0xE0001048) - Data: 00 00 00 00  returns 0x01 (0001ms, 0701ms total)
T209C 004:757 JLINK_ReadMemU32(0xE0001058, 0x0001 Items, ...) -- CPU_ReadMem(4 bytes @ 0xE0001058) - Data: 00 00 00 00  returns 0x01 (0000ms, 0701ms total)
T209C 004:758 JLINK_ReadReg(R0)  returns 0x20001F68 (0000ms, 0701ms total)
T209C 004:758 JLINK_ReadReg(R1)  returns 0x00000000 (0000ms, 0701ms total)
T209C 004:758 JLINK_ReadReg(R2)  returns 0x00000000 (0000ms, 0701ms total)
T209C 004:758 JLINK_ReadReg(R3)  returns 0x00000000 (0000ms, 0701ms total)
T209C 004:758 JLINK_ReadReg(R4)  returns 0x00000000 (0000ms, 0701ms total)
T209C 004:758 JLINK_ReadReg(R5)  returns 0x20001904 (0000ms, 0701ms total)
T209C 004:758 JLINK_ReadReg(R6)  returns 0x00000000 (0000ms, 0701ms total)
T209C 004:758 JLINK_ReadReg(R7)  returns 0x00000000 (0000ms, 0701ms total)
T209C 004:758 JLINK_ReadReg(R8)  returns 0x00000000 (0000ms, 0701ms total)
T209C 004:758 JLINK_ReadReg(R9)  returns 0x20000160 (0000ms, 0701ms total)
T209C 004:758 JLINK_ReadReg(R10)  returns 0x08003488 (0001ms, 0702ms total)
T209C 004:759 JLINK_ReadReg(R11)  returns 0x00000000 (0000ms, 0702ms total)
T209C 004:759 JLINK_ReadReg(R12)  returns 0x00000000 (0000ms, 0702ms total)
T209C 004:759 JLINK_ReadReg(R13 (SP))  returns 0x20001F28 (0000ms, 0702ms total)
T209C 004:759 JLINK_ReadReg(R14)  returns 0x080001F3 (0000ms, 0702ms total)
T209C 004:759 JLINK_ReadReg(R15 (PC))  returns 0x080001F2 (0000ms, 0702ms total)
T209C 004:759 JLINK_ReadReg(XPSR)  returns 0x61000000 (0001ms, 0703ms total)
T209C 004:760 JLINK_ReadReg(MSP)  returns 0x20001F28 (0000ms, 0703ms total)
T209C 004:760 JLINK_ReadReg(PSP)  returns 0x20000800 (0000ms, 0703ms total)
T209C 004:760 JLINK_ReadReg(CFBP)  returns 0x00000000 (0000ms, 0703ms total)
T0A4C 004:769 JLINK_ReadMemU32(0xE0001004, 0x0001 Items, ...) -- CPU_ReadMem(4 bytes @ 0xE0001004) - Data: 35 70 00 00  returns 0x01 (0001ms, 0704ms total)
T0A4C 004:770 JLINK_ReadMem (0xE000ED28, 0x0004 Bytes, ...) -- CPU_ReadMem(4 bytes @ 0xE000ED28) - Data: 00 00 00 00  returns 0x00 (0001ms, 0705ms total)
T0A4C 004:771 JLINK_ReadMem (0xE000ED2C, 0x0004 Bytes, ...) -- CPU_ReadMem(4 bytes @ 0xE000ED2C) - Data: 00 00 00 00  returns 0x00 (0001ms, 0706ms total)
T0A4C 004:772 JLINK_ReadMem (0xE000ED30, 0x0004 Bytes, ...) -- CPU_ReadMem(4 bytes @ 0xE000ED30) - Data: 03 00 00 00  returns 0x00 (0001ms, 0707ms total)
T0A4C 004:773 JLINK_ReadMem (0xE000ED34, 0x0004 Bytes, ...) -- CPU_ReadMem(4 bytes @ 0xE000ED34) - Data: F8 ED 00 E0  returns 0x00 (0001ms, 0708ms total)
T0A4C 004:774 JLINK_ReadMem (0xE000ED38, 0x0004 Bytes, ...) -- CPU_ReadMem(4 bytes @ 0xE000ED38) - Data: F8 ED 00 E0  returns 0x00 (0000ms, 0708ms total)
T0A4C 004:780 JLINK_ReadMem (0x080001EA, 0x0002 Bytes, ...) -- CPU_ReadMem(64 bytes @ 0x080001C0) -- Updating C cache (64 bytes @ 0x080001C0) -- Read from C cache (2 bytes @ 0x080001EA) - Data: 3C 21  returns 0x00 (0002ms, 0710ms total)
T0A4C 004:782 JLINK_ReadMem (0x080001EC, 0x003C Bytes, ...) -- CPU_ReadMem(64 bytes @ 0x08000200) -- Updating C cache (64 bytes @ 0x08000200) -- Read from C cache (60 bytes @ 0x080001EC) - Data: 01 A8 02 F0 E0 FF 00 BF 00 F0 A0 F8 4F F0 00 50 ...  returns 0x00 (0001ms, 0711ms total)
T209C 022:869 JLINK_SetBPEx(Addr = 0x0800020E, Type = 0xFFFFFFF2)  returns 0x00000004 (0000ms, 0711ms total)
T209C 022:869 JLINK_SetBPEx(Addr = 0x080002C4, Type = 0xFFFFFFF2)  returns 0x00000005 (0000ms, 0711ms total)
T209C 022:869 JLINK_ReadMemU32(0xE0001004, 0x0001 Items, ...) - Data: 35 70 00 00  returns 0x01 (0000ms, 0711ms total)
T209C 022:869 JLINK_WriteU32(0xE0001004, 0x000073FF) -- CPU_WriteMem(4 bytes @ 0xE0001004)  returns 0x00 (0001ms, 0712ms total)
T209C 022:870 JLINK_WriteU32(0xE0001000, 0x00410A1F)  returns 0x00 (0000ms, 0712ms total)
T209C 022:870 JLINK_WriteU32(0xE0000E80, 0x0001000F)  returns 0x00 (0000ms, 0712ms total)
T209C 022:870 JLINK_SWO_Control(JLINKARM_SWO_CMD_GET_NUM_BYTES, ...)  returns 0x00 (0000ms, 0712ms total)
T209C 022:870 JLINK_Go() -- CPU_WriteMem(4 bytes @ 0xE0002000) -- CPU_WriteMem(4 bytes @ 0xE0002000) -- CPU_WriteMem(4 bytes @ 0xE0001000) -- CPU_ReadMem(4 bytes @ 0xE0001000) -- CPU_WriteMem(4 bytes @ 0xE0000E80) -- CPU_WriteMem(4 bytes @ 0xE0002008) -- CPU_WriteMem(4 bytes @ 0xE000200C) (0004ms, 0716ms total)
T209C 022:874 JLINK_WriteU32(0xE0001000, 0x00010A1F) -- CPU is running -- CPU_WriteMem(4 bytes @ 0xE0001000)  returns 0x00 (0001ms, 0717ms total)
T209C 022:977 JLINK_SWO_Read(..., Offset = 0x00, NumBytes = 0x400000) - Data:  NumBytesRead = 0x00 (0000ms, 0717ms total)
T209C 022:978 JLINK_SWO_Control(JLINKARM_SWO_CMD_FLUSH, ...)  returns 0x00 (0000ms, 0717ms total)
T209C 022:978 JLINK_IsHalted()  returns TRUE (0004ms, 0721ms total)
T209C 022:982 JLINK_Halt()  returns 0x00 (0000ms, 0717ms total)
T209C 022:982 JLINK_IsHalted()  returns TRUE (0000ms, 0717ms total)
T209C 022:982 JLINK_IsHalted()  returns TRUE (0000ms, 0717ms total)
T209C 022:982 JLINK_IsHalted()  returns TRUE (0000ms, 0717ms total)
T209C 022:982 JLINK_ReadReg(R15 (PC))  returns 0x0800020E (0000ms, 0717ms total)
T209C 022:982 JLINK_ReadReg(XPSR)  returns 0x61000000 (0000ms, 0717ms total)
T209C 022:982 JLINK_SWO_Read(..., Offset = 0x00, NumBytes = 0x400000) - Data:  NumBytesRead = 0x00 (0000ms, 0717ms total)
T209C 022:984 JLINK_SWO_Control(JLINKARM_SWO_CMD_FLUSH, ...)  returns 0x00 (0000ms, 0717ms total)
T209C 022:984 JLINK_ClrBPEx(BPHandle = 0x00000004)  returns 0x00 (0000ms, 0717ms total)
T209C 022:984 JLINK_ClrBPEx(BPHandle = 0x00000005)  returns 0x00 (0000ms, 0717ms total)
T209C 022:984 JLINK_ReadMemU32(0xE000ED30, 0x0001 Items, ...) -- CPU_ReadMem(4 bytes @ 0xE000ED30) - Data: 03 00 00 00  returns 0x01 (0000ms, 0717ms total)
T209C 022:984 JLINK_ReadMemU32(0xE0001028, 0x0001 Items, ...) -- CPU_ReadMem(4 bytes @ 0xE0001028) - Data: 00 00 00 00  returns 0x01 (0001ms, 0718ms total)
T209C 022:986 JLINK_ReadMemU32(0xE0001038, 0x0001 Items, ...) -- CPU_ReadMem(4 bytes @ 0xE0001038) - Data: 00 02 00 00  returns 0x01 (0000ms, 0718ms total)
T209C 022:986 JLINK_ReadMemU32(0xE0001048, 0x0001 Items, ...) -- CPU_ReadMem(4 bytes @ 0xE0001048) - Data: 00 00 00 00  returns 0x01 (0001ms, 0719ms total)
T209C 022:987 JLINK_ReadMemU32(0xE0001058, 0x0001 Items, ...) -- CPU_ReadMem(4 bytes @ 0xE0001058) - Data: 00 00 00 00  returns 0x01 (0001ms, 0720ms total)
T209C 022:988 JLINK_ReadReg(R0)  returns 0xF0000000 (0000ms, 0720ms total)
T209C 022:988 JLINK_ReadReg(R1)  returns 0x2000087D (0000ms, 0720ms total)
T209C 022:988 JLINK_ReadReg(R2)  returns 0x00000347 (0000ms, 0720ms total)
T209C 022:988 JLINK_ReadReg(R3)  returns 0x04030100 (0000ms, 0720ms total)
T209C 022:988 JLINK_ReadReg(R4)  returns 0x00000000 (0000ms, 0720ms total)
T209C 022:988 JLINK_ReadReg(R5)  returns 0x20001904 (0000ms, 0720ms total)
T209C 022:988 JLINK_ReadReg(R6)  returns 0x00000000 (0000ms, 0720ms total)
T209C 022:988 JLINK_ReadReg(R7)  returns 0x00000000 (0000ms, 0720ms total)
T209C 022:988 JLINK_ReadReg(R8)  returns 0x00000000 (0000ms, 0720ms total)
T209C 022:988 JLINK_ReadReg(R9)  returns 0x20000160 (0000ms, 0720ms total)
T209C 022:988 JLINK_ReadReg(R10)  returns 0x08003488 (0000ms, 0720ms total)
T209C 022:988 JLINK_ReadReg(R11)  returns 0x00000000 (0000ms, 0720ms total)
T209C 022:988 JLINK_ReadReg(R12)  returns 0x00000018 (0000ms, 0720ms total)
T209C 022:988 JLINK_ReadReg(R13 (SP))  returns 0x20001F28 (0000ms, 0720ms total)
T209C 022:988 JLINK_ReadReg(R14)  returns 0x08002E21 (0000ms, 0720ms total)
T209C 022:988 JLINK_ReadReg(R15 (PC))  returns 0x0800020E (0000ms, 0720ms total)
T209C 022:988 JLINK_ReadReg(XPSR)  returns 0x61000000 (0000ms, 0720ms total)
T209C 022:988 JLINK_ReadReg(MSP)  returns 0x20001F28 (0000ms, 0720ms total)
T209C 022:988 JLINK_ReadReg(PSP)  returns 0x20000800 (0000ms, 0720ms total)
T209C 022:988 JLINK_ReadReg(CFBP)  returns 0x00000000 (0000ms, 0720ms total)
T0A4C 022:991 JLINK_ReadMemU32(0xE0001004, 0x0001 Items, ...) -- CPU_ReadMem(4 bytes @ 0xE0001004) - Data: C5 0D 38 00  returns 0x01 (0001ms, 0721ms total)
T0A4C 022:993 JLINK_ReadMem (0xE000ED28, 0x0004 Bytes, ...) -- CPU_ReadMem(4 bytes @ 0xE000ED28) - Data: 00 00 00 00  returns 0x00 (0000ms, 0721ms total)
T0A4C 022:993 JLINK_ReadMem (0xE000ED2C, 0x0004 Bytes, ...) -- CPU_ReadMem(4 bytes @ 0xE000ED2C) - Data: 00 00 00 00  returns 0x00 (0001ms, 0722ms total)
T0A4C 022:994 JLINK_ReadMem (0xE000ED30, 0x0004 Bytes, ...) -- CPU_ReadMem(4 bytes @ 0xE000ED30) - Data: 03 00 00 00  returns 0x00 (0001ms, 0723ms total)
T0A4C 022:995 JLINK_ReadMem (0xE000ED34, 0x0004 Bytes, ...) -- CPU_ReadMem(4 bytes @ 0xE000ED34) - Data: F8 ED 00 E0  returns 0x00 (0000ms, 0723ms total)
T0A4C 022:995 JLINK_ReadMem (0xE000ED38, 0x0004 Bytes, ...) -- CPU_ReadMem(4 bytes @ 0xE000ED38) - Data: F8 ED 00 E0  returns 0x00 (0001ms, 0724ms total)
T0A4C 022:999 JLINK_ReadMem (0x08000208, 0x003C Bytes, ...) -- CPU_ReadMem(128 bytes @ 0x08000200) -- Updating C cache (128 bytes @ 0x08000200) -- Read from C cache (60 bytes @ 0x08000208) - Data: 2F 48 01 07 08 60 59 E0 4F F0 00 50 00 68 00 F1 ...  returns 0x00 (0002ms, 0726ms total)
T0A4C 027:789 JLINK_ReadMem (0x20000000, 0x0134 Bytes, ...) -- CPU_ReadMem(320 bytes @ 0x20000000) -- Updating C cache (320 bytes @ 0x20000000) -- Read from C cache (308 bytes @ 0x20000000) - Data: 01 00 00 F0 00 00 00 00 09 00 28 23 00 00 00 00 ...  returns 0x00 (0005ms, 0731ms total)
T209C 045:037 JLINK_ReadMemU32(0xE0001004, 0x0001 Items, ...) - Data: C5 0D 38 00  returns 0x01 (0000ms, 0731ms total)
T209C 045:037 JLINK_WriteU32(0xE0001004, 0x00380FFF) -- CPU_WriteMem(4 bytes @ 0xE0001004)  returns 0x00 (0001ms, 0732ms total)
T209C 045:038 JLINK_WriteU32(0xE0001000, 0x00410A1F)  returns 0x00 (0000ms, 0732ms total)
T209C 045:038 JLINK_WriteU32(0xE0000E80, 0x0001000F)  returns 0x00 (0000ms, 0732ms total)
T209C 045:038 JLINK_SWO_Control(JLINKARM_SWO_CMD_GET_NUM_BYTES, ...)  returns 0x00 (0000ms, 0732ms total)
T209C 045:038 JLINK_Step() -- Read from C cache (2 bytes @ 0x0800020E) -- CPU_ReadMem(4 bytes @ 0xE000ED18) -- CPU_WriteMem(4 bytes @ 0xE000ED18) -- CPU_ReadMem(4 bytes @ 0xE000ED18) -- CPU_WriteMem(4 bytes @ 0xE000ED18) -- Simulated  returns 0x00 (0002ms, 0734ms total)
T209C 045:040 JLINK_ReadReg(R15 (PC))  returns 0x080002C4 (0000ms, 0734ms total)
T209C 045:040 JLINK_ReadReg(XPSR)  returns 0x61000000 (0000ms, 0734ms total)
T209C 045:040 JLINK_ReadReg(R0)  returns 0xF0000000 (0000ms, 0734ms total)
T209C 045:040 JLINK_ReadReg(R1)  returns 0x2000087D (0000ms, 0734ms total)
T209C 045:040 JLINK_ReadReg(R2)  returns 0x00000347 (0000ms, 0734ms total)
T209C 045:040 JLINK_ReadReg(R3)  returns 0x04030100 (0000ms, 0734ms total)
T209C 045:040 JLINK_ReadReg(R4)  returns 0x00000000 (0000ms, 0734ms total)
T209C 045:040 JLINK_ReadReg(R5)  returns 0x20001904 (0000ms, 0734ms total)
T209C 045:040 JLINK_ReadReg(R6)  returns 0x00000000 (0000ms, 0734ms total)
T209C 045:040 JLINK_ReadReg(R7)  returns 0x00000000 (0000ms, 0734ms total)
T209C 045:040 JLINK_ReadReg(R8)  returns 0x00000000 (0000ms, 0734ms total)
T209C 045:040 JLINK_ReadReg(R9)  returns 0x20000160 (0000ms, 0734ms total)
T209C 045:041 JLINK_ReadReg(R10)  returns 0x08003488 (0000ms, 0734ms total)
T209C 045:041 JLINK_ReadReg(R11)  returns 0x00000000 (0000ms, 0734ms total)
T209C 045:041 JLINK_ReadReg(R12)  returns 0x00000018 (0000ms, 0734ms total)
T209C 045:041 JLINK_ReadReg(R13 (SP))  returns 0x20001F28 (0000ms, 0734ms total)
T209C 045:041 JLINK_ReadReg(R14)  returns 0x08002E21 (0000ms, 0734ms total)
T209C 045:041 JLINK_ReadReg(R15 (PC))  returns 0x080002C4 (0000ms, 0734ms total)
T209C 045:041 JLINK_ReadReg(XPSR)  returns 0x61000000 (0000ms, 0734ms total)
T209C 045:041 JLINK_ReadReg(MSP)  returns 0x20001F28 (0000ms, 0734ms total)
T209C 045:041 JLINK_ReadReg(PSP)  returns 0x20000800 (0000ms, 0734ms total)
T209C 045:041 JLINK_ReadReg(CFBP)  returns 0x00000000 (0000ms, 0734ms total)
T0A4C 045:044 JLINK_ReadMemU32(0xE0001004, 0x0001 Items, ...) - Data: FF 0F 38 00  returns 0x01 (0000ms, 0734ms total)
T0A4C 045:045 JLINK_ReadMem (0x20000000, 0x0134 Bytes, ...) -- Read from C cache (308 bytes @ 0x20000000) - Data: 01 00 00 F0 00 00 00 00 09 00 28 23 00 00 00 00 ...  returns 0x00 (0000ms, 0734ms total)
T0A4C 045:045 JLINK_ReadMem (0xE000ED28, 0x0004 Bytes, ...) -- CPU_ReadMem(4 bytes @ 0xE000ED28) - Data: 00 00 00 00  returns 0x00 (0002ms, 0736ms total)
T0A4C 045:047 JLINK_ReadMem (0xE000ED2C, 0x0004 Bytes, ...) -- CPU_ReadMem(4 bytes @ 0xE000ED2C) - Data: 00 00 00 00  returns 0x00 (0000ms, 0736ms total)
T0A4C 045:047 JLINK_ReadMem (0xE000ED30, 0x0004 Bytes, ...) -- CPU_ReadMem(4 bytes @ 0xE000ED30) - Data: 03 00 00 00  returns 0x00 (0001ms, 0737ms total)
T0A4C 045:048 JLINK_ReadMem (0xE000ED34, 0x0004 Bytes, ...) -- CPU_ReadMem(4 bytes @ 0xE000ED34) - Data: F8 ED 00 E0  returns 0x00 (0000ms, 0737ms total)
T0A4C 045:048 JLINK_ReadMem (0xE000ED38, 0x0004 Bytes, ...) -- CPU_ReadMem(4 bytes @ 0xE000ED38) - Data: F8 ED 00 E0  returns 0x00 (0002ms, 0739ms total)
T0A4C 045:054 JLINK_ReadMem (0x080002C2, 0x0002 Bytes, ...) -- CPU_ReadMem(64 bytes @ 0x080002C0) -- Updating C cache (64 bytes @ 0x080002C0) -- Read from C cache (2 bytes @ 0x080002C2) - Data: 00 BF  returns 0x00 (0002ms, 0741ms total)
T0A4C 045:056 JLINK_ReadMem (0x080002C4, 0x003C Bytes, ...) -- Read from C cache (60 bytes @ 0x080002C4) - Data: A4 E7 00 00 02 00 00 F0 20 01 21 42 1C 00 00 20 ...  returns 0x00 (0000ms, 0741ms total)
T209C 048:037 JLINK_SetBPEx(Addr = 0x08000278, Type = 0xFFFFFFF2)  returns 0x00000006 (0000ms, 0741ms total)
T209C 048:037 JLINK_ReadMemU32(0xE0001004, 0x0001 Items, ...) - Data: FF 0F 38 00  returns 0x01 (0001ms, 0742ms total)
T209C 048:038 JLINK_WriteU32(0xE0001004, 0x00380FFF)  returns 0x00 (0000ms, 0742ms total)
T209C 048:038 JLINK_WriteU32(0xE0001000, 0x00410A1F)  returns 0x00 (0000ms, 0742ms total)
T209C 048:038 JLINK_WriteU32(0xE0000E80, 0x0001000F)  returns 0x00 (0000ms, 0742ms total)
T209C 048:038 JLINK_SWO_Control(JLINKARM_SWO_CMD_GET_NUM_BYTES, ...)  returns 0x00 (0000ms, 0742ms total)
T209C 048:038 JLINK_Go() -- CPU_WriteMem(4 bytes @ 0xE0002000) -- CPU_WriteMem(4 bytes @ 0xE0001000) -- CPU_ReadMem(4 bytes @ 0xE0001000) -- CPU_WriteMem(4 bytes @ 0xE0000E80) -- CPU_WriteMem(4 bytes @ 0xE0002008) -- CPU_WriteMem(4 bytes @ 0xE000200C) -- CPU_WriteMem(4 bytes @ 0xE0001004) (0005ms, 0747ms total)
T209C 048:043 JLINK_WriteU32(0xE0001000, 0x00010A1F) -- CPU is running -- CPU_WriteMem(4 bytes @ 0xE0001000)  returns 0x00 (0001ms, 0748ms total)
T209C 048:144 JLINK_SWO_Read(..., Offset = 0x00, NumBytes = 0x400000) - Data:  NumBytesRead = 0x00 (0000ms, 0748ms total)
T209C 048:146 JLINK_SWO_Control(JLINKARM_SWO_CMD_FLUSH, ...)  returns 0x00 (0000ms, 0748ms total)
T209C 048:146 JLINK_IsHalted()  returns FALSE (0000ms, 0748ms total)
T209C 048:248 JLINK_SWO_Read(..., Offset = 0x00, NumBytes = 0x400000) - Data:  NumBytesRead = 0x00 (0000ms, 0748ms total)
T209C 048:250 JLINK_SWO_Control(JLINKARM_SWO_CMD_FLUSH, ...)  returns 0x00 (0000ms, 0748ms total)
T209C 048:250 JLINK_IsHalted()  returns FALSE (0001ms, 0749ms total)
T209C 048:351 JLINK_SWO_Read(..., Offset = 0x00, NumBytes = 0x400000) - Data:  NumBytesRead = 0x00 (0000ms, 0748ms total)
T209C 048:353 JLINK_SWO_Control(JLINKARM_SWO_CMD_FLUSH, ...)  returns 0x00 (0000ms, 0748ms total)
T209C 048:353 JLINK_IsHalted()  returns FALSE (0001ms, 0749ms total)
T209C 048:454 JLINK_SWO_Read(..., Offset = 0x00, NumBytes = 0x400000) - Data:  NumBytesRead = 0x00 (0000ms, 0748ms total)
T209C 048:456 JLINK_SWO_Control(JLINKARM_SWO_CMD_FLUSH, ...)  returns 0x00 (0000ms, 0748ms total)
T209C 048:456 JLINK_IsHalted()  returns FALSE (0000ms, 0748ms total)
T209C 048:557 JLINK_SWO_Read(..., Offset = 0x00, NumBytes = 0x400000) - Data:  NumBytesRead = 0x00 (0000ms, 0748ms total)
T209C 048:559 JLINK_SWO_Control(JLINKARM_SWO_CMD_FLUSH, ...)  returns 0x00 (0000ms, 0748ms total)
T209C 048:559 JLINK_ReadMemU32(0xE0001004, 0x0001 Items, ...) -- CPU is running -- CPU_ReadMem(4 bytes @ 0xE0001004) - Data: 4B 2D 71 02  returns 0x01 (0001ms, 0749ms total)
T0A4C 048:560 JLINK_ReadMem (0x20000000, 0x0134 Bytes, ...) -- CPU is running -- CPU_ReadMem(308 bytes @ 0x20000000) - Data: 01 00 00 F0 62 00 00 00 09 00 28 23 00 00 00 00 ...  returns 0x00 (0005ms, 0754ms total)
T209C 048:574 JLINK_IsHalted()  returns FALSE (0001ms, 0755ms total)
T209C 048:677 JLINK_SWO_Read(..., Offset = 0x00, NumBytes = 0x400000) - Data:  NumBytesRead = 0x00 (0000ms, 0754ms total)
T209C 048:679 JLINK_SWO_Control(JLINKARM_SWO_CMD_FLUSH, ...)  returns 0x00 (0000ms, 0754ms total)
T209C 048:679 JLINK_IsHalted()  returns FALSE (0000ms, 0754ms total)
T209C 048:780 JLINK_SWO_Read(..., Offset = 0x00, NumBytes = 0x400000) - Data:  NumBytesRead = 0x00 (0000ms, 0754ms total)
T209C 048:782 JLINK_SWO_Control(JLINKARM_SWO_CMD_FLUSH, ...)  returns 0x00 (0000ms, 0754ms total)
T209C 048:782 JLINK_IsHalted()  returns FALSE (0001ms, 0755ms total)
T209C 048:884 JLINK_SWO_Read(..., Offset = 0x00, NumBytes = 0x400000) - Data:  NumBytesRead = 0x00 (0000ms, 0754ms total)
T209C 048:886 JLINK_SWO_Control(JLINKARM_SWO_CMD_FLUSH, ...)  returns 0x00 (0000ms, 0754ms total)
T209C 048:886 JLINK_IsHalted()  returns FALSE (0000ms, 0754ms total)
T209C 048:988 JLINK_SWO_Read(..., Offset = 0x00, NumBytes = 0x400000) - Data:  NumBytesRead = 0x00 (0000ms, 0754ms total)
T209C 048:990 JLINK_SWO_Control(JLINKARM_SWO_CMD_FLUSH, ...)  returns 0x00 (0000ms, 0754ms total)
T209C 048:990 JLINK_IsHalted()  returns FALSE (0000ms, 0754ms total)
T209C 049:090 JLINK_SWO_Read(..., Offset = 0x00, NumBytes = 0x400000) - Data:  NumBytesRead = 0x00 (0000ms, 0754ms total)
T209C 049:093 JLINK_SWO_Control(JLINKARM_SWO_CMD_FLUSH, ...)  returns 0x00 (0000ms, 0754ms total)
T209C 049:093 JLINK_ReadMemU32(0xE0001004, 0x0001 Items, ...) -- CPU is running -- CPU_ReadMem(4 bytes @ 0xE0001004) - Data: 07 5E BA 04  returns 0x01 (0000ms, 0754ms total)
T0A4C 049:093 JLINK_ReadMem (0x20000000, 0x0134 Bytes, ...) -- CPU is running -- CPU_ReadMem(308 bytes @ 0x20000000) - Data: 01 00 00 F0 C7 00 00 00 09 00 28 23 00 00 00 00 ...  returns 0x00 (0004ms, 0758ms total)
T209C 049:100 JLINK_IsHalted()  returns FALSE (0000ms, 0758ms total)
T209C 049:201 JLINK_SWO_Read(..., Offset = 0x00, NumBytes = 0x400000) - Data:  NumBytesRead = 0x00 (0000ms, 0758ms total)
T209C 049:203 JLINK_SWO_Control(JLINKARM_SWO_CMD_FLUSH, ...)  returns 0x00 (0000ms, 0758ms total)
T209C 049:203 JLINK_IsHalted()  returns FALSE (0001ms, 0759ms total)
T209C 049:305 JLINK_SWO_Read(..., Offset = 0x00, NumBytes = 0x400000) - Data:  NumBytesRead = 0x00 (0000ms, 0758ms total)
T209C 049:307 JLINK_SWO_Control(JLINKARM_SWO_CMD_FLUSH, ...)  returns 0x00 (0000ms, 0758ms total)
T209C 049:307 JLINK_IsHalted()  returns FALSE (0000ms, 0758ms total)
T209C 049:409 JLINK_SWO_Read(..., Offset = 0x00, NumBytes = 0x400000) - Data:  NumBytesRead = 0x00 (0000ms, 0758ms total)
T209C 049:410 JLINK_SWO_Control(JLINKARM_SWO_CMD_FLUSH, ...)  returns 0x00 (0000ms, 0758ms total)
T209C 049:410 JLINK_IsHalted()  returns FALSE (0000ms, 0758ms total)
T209C 049:511 JLINK_SWO_Read(..., Offset = 0x00, NumBytes = 0x400000) - Data:  NumBytesRead = 0x00 (0000ms, 0758ms total)
T209C 049:513 JLINK_SWO_Control(JLINKARM_SWO_CMD_FLUSH, ...)  returns 0x00 (0000ms, 0758ms total)
T209C 049:513 JLINK_IsHalted()  returns FALSE (0000ms, 0758ms total)
T209C 049:615 JLINK_SWO_Read(..., Offset = 0x00, NumBytes = 0x400000) - Data:  NumBytesRead = 0x00 (0000ms, 0758ms total)
T209C 049:617 JLINK_SWO_Control(JLINKARM_SWO_CMD_FLUSH, ...)  returns 0x00 (0000ms, 0758ms total)
T209C 049:617 JLINK_ReadMemU32(0xE0001004, 0x0001 Items, ...) -- CPU is running -- CPU_ReadMem(4 bytes @ 0xE0001004) - Data: D3 CC FA 06  returns 0x01 (0001ms, 0759ms total)
T0A4C 049:618 JLINK_ReadMem (0x20000000, 0x0134 Bytes, ...) -- CPU is running -- CPU_ReadMem(308 bytes @ 0x20000000) - Data: 01 00 00 F0 2A 01 00 00 09 00 28 23 00 00 00 00 ...  returns 0x00 (0004ms, 0763ms total)
T209C 049:635 JLINK_IsHalted()  returns FALSE (0001ms, 0764ms total)
T209C 049:736 JLINK_SWO_Read(..., Offset = 0x00, NumBytes = 0x400000) - Data:  NumBytesRead = 0x00 (0000ms, 0763ms total)
T209C 049:739 JLINK_SWO_Control(JLINKARM_SWO_CMD_FLUSH, ...)  returns 0x00 (0000ms, 0763ms total)
T209C 049:739 JLINK_IsHalted()  returns FALSE (0000ms, 0763ms total)
T209C 049:840 JLINK_SWO_Read(..., Offset = 0x00, NumBytes = 0x400000) - Data:  NumBytesRead = 0x00 (0000ms, 0763ms total)
T209C 049:842 JLINK_SWO_Control(JLINKARM_SWO_CMD_FLUSH, ...)  returns 0x00 (0000ms, 0763ms total)
T209C 049:842 JLINK_IsHalted()  returns FALSE (0000ms, 0763ms total)
T209C 049:943 JLINK_SWO_Read(..., Offset = 0x00, NumBytes = 0x400000) - Data:  NumBytesRead = 0x00 (0000ms, 0763ms total)
T209C 049:946 JLINK_SWO_Control(JLINKARM_SWO_CMD_FLUSH, ...)  returns 0x00 (0000ms, 0763ms total)
T209C 049:946 JLINK_IsHalted()  returns FALSE (0000ms, 0763ms total)
T209C 050:048 JLINK_SWO_Read(..., Offset = 0x00, NumBytes = 0x400000) - Data:  NumBytesRead = 0x00 (0000ms, 0763ms total)
T209C 050:050 JLINK_SWO_Control(JLINKARM_SWO_CMD_FLUSH, ...)  returns 0x00 (0000ms, 0763ms total)
T209C 050:050 JLINK_IsHalted()  returns FALSE (0000ms, 0763ms total)
T209C 050:152 JLINK_SWO_Read(..., Offset = 0x00, NumBytes = 0x400000) - Data:  NumBytesRead = 0x00 (0000ms, 0763ms total)
T209C 050:154 JLINK_SWO_Control(JLINKARM_SWO_CMD_FLUSH, ...)  returns 0x00 (0000ms, 0763ms total)
T209C 050:154 JLINK_ReadMemU32(0xE0001004, 0x0001 Items, ...) -- CPU is running -- CPU_ReadMem(4 bytes @ 0xE0001004) - Data: 5A B4 48 09  returns 0x01 (0001ms, 0764ms total)
T0A4C 050:155 JLINK_ReadMem (0x20000000, 0x0134 Bytes, ...) -- CPU is running -- CPU_ReadMem(308 bytes @ 0x20000000) - Data: 01 00 00 F0 90 01 00 00 09 00 28 23 00 00 00 00 ...  returns 0x00 (0003ms, 0767ms total)
T209C 050:162 JLINK_IsHalted()  returns FALSE (0000ms, 0767ms total)
T209C 050:264 JLINK_SWO_Read(..., Offset = 0x00, NumBytes = 0x400000) - Data:  NumBytesRead = 0x00 (0000ms, 0767ms total)
T209C 050:266 JLINK_SWO_Control(JLINKARM_SWO_CMD_FLUSH, ...)  returns 0x00 (0000ms, 0767ms total)
T209C 050:266 JLINK_IsHalted()  returns FALSE (0000ms, 0767ms total)
T209C 050:368 JLINK_SWO_Read(..., Offset = 0x00, NumBytes = 0x400000) - Data:  NumBytesRead = 0x00 (0000ms, 0767ms total)
T209C 050:370 JLINK_SWO_Control(JLINKARM_SWO_CMD_FLUSH, ...)  returns 0x00 (0000ms, 0767ms total)
T209C 050:370 JLINK_IsHalted()  returns FALSE (0000ms, 0767ms total)
T209C 050:471 JLINK_SWO_Read(..., Offset = 0x00, NumBytes = 0x400000) - Data:  NumBytesRead = 0x00 (0000ms, 0767ms total)
T209C 050:473 JLINK_SWO_Control(JLINKARM_SWO_CMD_FLUSH, ...)  returns 0x00 (0000ms, 0767ms total)
T209C 050:473 JLINK_IsHalted()  returns FALSE (0001ms, 0768ms total)
T209C 050:575 JLINK_SWO_Read(..., Offset = 0x00, NumBytes = 0x400000) - Data:  NumBytesRead = 0x00 (0000ms, 0767ms total)
T209C 050:577 JLINK_SWO_Control(JLINKARM_SWO_CMD_FLUSH, ...)  returns 0x00 (0000ms, 0767ms total)
T209C 050:577 JLINK_IsHalted()  returns FALSE (0000ms, 0767ms total)
T209C 050:679 JLINK_SWO_Read(..., Offset = 0x00, NumBytes = 0x400000) - Data:  NumBytesRead = 0x00 (0000ms, 0767ms total)
T209C 050:681 JLINK_SWO_Control(JLINKARM_SWO_CMD_FLUSH, ...)  returns 0x00 (0000ms, 0767ms total)
T209C 050:681 JLINK_ReadMemU32(0xE0001004, 0x0001 Items, ...) -- CPU is running -- CPU_ReadMem(4 bytes @ 0xE0001004) - Data: 8D 1F 8C 0B  returns 0x01 (0001ms, 0768ms total)
T0A4C 050:682 JLINK_ReadMem (0x20000000, 0x0134 Bytes, ...) -- CPU is running -- CPU_ReadMem(308 bytes @ 0x20000000) - Data: 01 00 00 F0 F4 01 00 00 09 00 28 23 00 00 00 00 ...  returns 0x00 (0005ms, 0773ms total)
T209C 050:693 JLINK_IsHalted()  returns FALSE (0001ms, 0774ms total)
T209C 050:795 JLINK_SWO_Read(..., Offset = 0x00, NumBytes = 0x400000) - Data:  NumBytesRead = 0x00 (0000ms, 0773ms total)
T209C 050:797 JLINK_SWO_Control(JLINKARM_SWO_CMD_FLUSH, ...)  returns 0x00 (0000ms, 0773ms total)
T209C 050:797 JLINK_IsHalted()  returns FALSE (0000ms, 0773ms total)
T209C 050:898 JLINK_SWO_Read(..., Offset = 0x00, NumBytes = 0x400000) - Data:  NumBytesRead = 0x00 (0000ms, 0773ms total)
T209C 050:900 JLINK_SWO_Control(JLINKARM_SWO_CMD_FLUSH, ...)  returns 0x00 (0000ms, 0773ms total)
T209C 050:900 JLINK_IsHalted()  returns FALSE (0000ms, 0773ms total)
T209C 051:002 JLINK_SWO_Read(..., Offset = 0x00, NumBytes = 0x400000) - Data:  NumBytesRead = 0x00 (0000ms, 0773ms total)
T209C 051:004 JLINK_SWO_Control(JLINKARM_SWO_CMD_FLUSH, ...)  returns 0x00 (0000ms, 0773ms total)
T209C 051:004 JLINK_IsHalted()  returns FALSE (0000ms, 0773ms total)
T209C 051:105 JLINK_SWO_Read(..., Offset = 0x00, NumBytes = 0x400000) - Data:  NumBytesRead = 0x00 (0000ms, 0773ms total)
T209C 051:106 JLINK_SWO_Control(JLINKARM_SWO_CMD_FLUSH, ...)  returns 0x00 (0000ms, 0773ms total)
